
T1AFC 000:396 SEGGER J-Link V4.40c Log File (0006ms, 0391ms total)
T1AFC 000:396 DLL Compiled: Jan 24 2012 09:30:33 (0006ms, 0391ms total)
T1AFC 000:396 Logging started @ 2014-08-12 12:29 (0006ms, 0391ms total)
T1AFC 000:402 JLINK_SetWarnOutHandler(...) (0000ms, 0397ms total)
T1AFC 000:402 JLINK_OpenEx(...)
Firmware: J-Link ARM V8 compiled Nov 25 2013 19:20:08
Hardware: V8.00
S/N: 17935099
Feature(s): RDI,FlashDL,FlashBP,JFlash  returns O.K. (0111ms, 0397ms total)
T1AFC 000:513 JLINK_SetErrorOutHandler(...) (0000ms, 0508ms total)
T1AFC 000:513 JLINK_ExecCommand("Device = STM32F103ZC", ...)
                JLINK_ExecCommand("map ram 0x20000000 - 0x2000BFFF", ...)  returns 0x00 (0000ms, 0000ms total)
                JLINK_AddMirrorAreaEx(Addr = 0x00000000, Size = 0x00000000) (0000ms, 0000ms total)
              Device "STM32F103ZC" selected (256 KB flash, 48 KB RAM).  returns 0x00 (0005ms, 0508ms total)
T1AFC 000:520 JLINK_ExecCommand("ProjectFile = "C:\Documents and Settings\Administrator\桌面\最近项目\百度云同步盘\摄像头上位机下位机\2014.7.16改多发不回问题\jpeg\new upload image jpeg 485 - 7.16\USER\JLinkSettings.ini"", ...)  returns 0x00 (0002ms, 0513ms total)
T1AFC 000:528 JLINK_ExecCommand("DisableConnectionTimeout", ...)  returns 0x00 (0000ms, 0515ms total)
T1AFC 000:528 JLINK_TIF_Select(JLINKARM_TIF_SWD)  returns 0x00 (0007ms, 0515ms total)
T1AFC 000:535 JLINK_SetSpeed(5000) (0001ms, 0522ms total)
T1AFC 000:536 JLINK_GetHardwareVersion()  returns 0x13880 (0000ms, 0523ms total)
T1AFC 000:536 JLINK_GetDLLVersion()  returns 44003 (0000ms, 0523ms total)
T1AFC 000:536 JLINK_GetFirmwareString(...) (0000ms, 0523ms total)
T1AFC 000:555 JLINK_GetDLLVersion()  returns 44003 (0000ms, 0523ms total)
T1AFC 000:555 JLINK_GetCompileDateTime() (0000ms, 0523ms total)
T1AFC 000:561 JLINK_GetFirmwareString(...) (0000ms, 0523ms total)
T1AFC 000:569 JLINK_GetHardwareVersion()  returns 0x13880 (0000ms, 0523ms total)
T1AFC 000:584 JLINK_GetId() >0x108 TIF>Found SWD-DP with ID 0x1BA01477 >0x33 TIF> >0x33 TIF> >0x35 TIF> >0x33 TIF> >0x33 TIF> >0x35 TIF> >0x33 TIF> >0x33 TIF> >0x35 TIF> >0x33 TIF> >0x33 TIF> >0x35 TIF> >0x33 TIF> >0x33 TIF> >0x35 TIF> >0x35 TIF> >0x35 TIF> >0x35 TIF> >0x35 TIF> >0x33 TIF> >0x33 TIF> >0x35 TIF> >0x35 TIF> >0x35 TIF> >0x33 TIF> >0x33 TIF> >0x33 TIF>TPIU fitted.ETM fitted. >0x35 TIF> >0x33 TIF> >0x33 TIF> >0x35 TIF> >0x33 TIF> >0x33 TIF>  FPUnit: 6 code (BP) slots and 2 literal slots
 >0x35 TIF> >0x33 TIF> >0x33 TIF> >0x35 TIF> >0x35 TIF> >0x35 TIF> >0x33 TIF> >0x33 TIF> >0x35 TIF> >0x33 TIF> >0x33 TIF> >0x35 TIF> >0x33 TIF> >0x33 TIF>Found Cortex-M3 r1p1, Little endian. >0x33 TIF>  returns 0x1BA01477 (0067ms, 0523ms total)
T1AFC 000:651 JLINK_GetDebugInfo(0x100) -- Value=0xE00FF003  returns 0x00 (0000ms, 0590ms total)
T1AFC 000:654 JLINK_ReadMem (0xE00FFFF0, 0x0010 Bytes, ...) -- CPU is running -- CPU_ReadMem(16 bytes @ 0xE00FFFF0) -- Data:  0D 00 00 00 10 00 00 00 05 00 00 00 B1 00 00 00  returns 0x00 (0003ms, 0590ms total)
T1AFC 000:657 JLINK_ReadMem (0xE00FFFD0, 0x0020 Bytes, ...) -- CPU is running -- CPU_ReadMem(32 bytes @ 0xE00FFFD0) -- Data:  00 00 00 00 00 00 00 00 00 00 00 00 00 00 00 00 ...  returns 0x00 (0002ms, 0593ms total)
T1AFC 000:659 JLINK_ReadMem (0xE00FF000, 0x0018 Bytes, ...) -- CPU is running -- CPU_ReadMem(24 bytes @ 0xE00FF000) -- Data:  03 F0 F0 FF 03 20 F0 FF 03 30 F0 FF 03 10 F0 FF ...  returns 0x00 (0001ms, 0595ms total)
T1AFC 000:660 JLINK_ReadMemU32(0xE000ED00, 0x0001 Items, ...) -- CPU is running -- CPU_ReadMem(4 bytes @ 0xE000ED00) -- Data:  31 C2 1F 41  returns 0x01 (0001ms, 0596ms total)
T1AFC 000:661 JLINK_SetResetType(JLINKARM_RESET_TYPE_NORMAL)  returns JLINKARM_RESET_TYPE_NORMAL (0000ms, 0597ms total)
T1AFC 000:661 JLINK_Reset() >0x108 TIF>Found SWD-DP with ID 0x1BA01477 >0x33 TIF> >0x33 TIF> >0x35 TIF> >0x33 TIF> >0x35 TIF> >0x33 TIF> >0x33 TIF> >0x35 TIF> >0x33 TIF> >0x33 TIF> >0x35 TIF> >0x33 TIF> >0x33 TIF> >0x35 TIF> >0x33 TIF> >0x33 TIF> >0x35 TIF> >0x35 TIF> >0x35 TIF> >0x35 TIF> >0x35 TIF> >0x33 TIF> >0x33 TIF> >0x35 TIF> >0x33 TIF> >0x33 TIF> >0x33 TIF>TPIU fitted.ETM fitted. >0x35 TIF> >0x33 TIF> >0x33 TIF> >0x35 TIF> >0x33 TIF> >0x33 TIF>  FPUnit: 6 code (BP) slots and 2 literal slots
 >0x35 TIF> >0x33 TIF> >0x33 TIF> >0x35 TIF> >0x33 TIF> >0x33 TIF> >0x35 TIF> >0x33 TIF> >0x33 TIF> >0x35 TIF> >0x33 TIF> >0x33 TIF>Found Cortex-M3 r1p1, Little endian. -- CPU is running -- CPU_WriteMem(4 bytes @ 0xE000EDF0) -- CPU is running -- CPU_WriteMem(4 bytes @ 0xE000EDFC) >0x35 TIF> -- CPU is running -- CPU_WriteMem(4 bytes @ 0xE000ED0C) -- CPU is running -- CPU_ReadMem(4 bytes @ 0xE000EDF0) -- CPU is running -- CPU_ReadMem(4 bytes @ 0xE000EDF0) -- CPU is running
 -- CPU_WriteMem(4 bytes @ 0xE000EDF0) -- CPU is running -- CPU_WriteMem(4 bytes @ 0xE000EDFC) -- CPU is running -- CPU_ReadMem(4 bytes @ 0xE000EDF0) (0089ms, 0597ms total)
T1AFC 000:750 JLINK_Halt()  returns 0x00 (0000ms, 0686ms total)
T1AFC 000:750 JLINK_IsHalted()  returns TRUE (0001ms, 0686ms total)
T1AFC 000:751 JLINK_ReadMemU32(0xE000EDF0, 0x0001 Items, ...) -- CPU_ReadMem(4 bytes @ 0xE000EDF0) -- Data:  03 00 03 00  returns 0x01 (0001ms, 0686ms total)
T1AFC 000:752 JLINK_WriteU32(0xE000EDF0, 0xA05F0003) -- CPU_WriteMem(4 bytes @ 0xE000EDF0)  returns 0x00 (0001ms, 0687ms total)
T1AFC 000:753 JLINK_WriteU32(0xE000EDFC, 0x01000000) -- CPU_WriteMem(4 bytes @ 0xE000EDFC)  returns 0x00 (0001ms, 0688ms total)
T1AFC 000:763 JLINK_GetHWStatus(...)  returns 0x00 (0001ms, 0690ms total)
T1AFC 000:770 JLINK_GetNumBPUnits(Type = 0xFFFFFF00)  returns 0x06 (0000ms, 0691ms total)
T1AFC 000:770 JLINK_GetNumBPUnits(Type = 0xF0)  returns 0x2000 (0000ms, 0691ms total)
T1AFC 000:770 JLINK_GetNumWPUnits()  returns 0x04 (0000ms, 0691ms total)
T1AFC 000:777 JLINK_GetSpeed()  returns 0xFA0 (0000ms, 0691ms total)
T1AFC 000:781 JLINK_ReadMemU32(0xE000E004, 0x0001 Items, ...) -- CPU_ReadMem(4 bytes @ 0xE000E004) -- Data:  01 00 00 00  returns 0x01 (0001ms, 0691ms total)
T1AFC 000:782 JLINK_ReadMemU32(0xE000E004, 0x0001 Items, ...) -- CPU_ReadMem(4 bytes @ 0xE000E004) -- Data:  01 00 00 00  returns 0x01 (0001ms, 0692ms total)
T1AFC 000:783 JLINK_WriteMem(0xE0001000, 0x001C Bytes, ...) -- Data:  01 00 00 00 00 00 00 00 00 00 00 00 00 00 00 00 ... -- CPU_WriteMem(28 bytes @ 0xE0001000)  returns 0x1C (0002ms, 0693ms total)
T1AFC 000:785 JLINK_ReadMem (0xE0001000, 0x001C Bytes, ...) -- CPU_ReadMem(28 bytes @ 0xE0001000) -- Data:  01 00 00 40 00 00 00 00 00 00 00 00 00 00 00 00 ...  returns 0x00 (0001ms, 0695ms total)
T1AFC 000:786 JLINK_Halt()  returns 0x00 (0000ms, 0696ms total)
T1AFC 000:786 JLINK_IsHalted()  returns TRUE (0000ms, 0696ms total)
T1AFC 000:845 JLINK_WriteMem(0x20000000, 0x0164 Bytes, ...) -- Data:  00 BE 0A E0 0D 78 2D 06 68 40 08 24 40 00 00 D3 ... -- CPU_WriteMem(356 bytes @ 0x20000000)  returns 0x164 (0004ms, 0696ms total)
T1AFC 000:849 JLINK_WriteReg(R0, 0x08000000)  returns 0x00 (0000ms, 0700ms total)
T1AFC 000:849 JLINK_WriteReg(R1, 0x007A1200)  returns 0x00 (0000ms, 0700ms total)
T1AFC 000:849 JLINK_WriteReg(R2, 0x00000001)  returns 0x00 (0000ms, 0700ms total)
T1AFC 000:849 JLINK_WriteReg(R3, 0x00000000)  returns 0x00 (0000ms, 0700ms total)
T1AFC 000:849 JLINK_WriteReg(R4, 0x00000000)  returns 0x00 (0000ms, 0700ms total)
T1AFC 000:849 JLINK_WriteReg(R5, 0x00000000)  returns 0x00 (0000ms, 0700ms total)
T1AFC 000:849 JLINK_WriteReg(R6, 0x00000000)  returns 0x00 (0000ms, 0700ms total)
T1AFC 000:849 JLINK_WriteReg(R7, 0x00000000)  returns 0x00 (0000ms, 0700ms total)
T1AFC 000:849 JLINK_WriteReg(R8, 0x00000000)  returns 0x00 (0000ms, 0700ms total)
T1AFC 000:849 JLINK_WriteReg(R9, 0x20000160)  returns 0x00 (0000ms, 0700ms total)
T1AFC 000:849 JLINK_WriteReg(R10, 0x00000000)  returns 0x00 (0000ms, 0700ms total)
T1AFC 000:849 JLINK_WriteReg(R11, 0x00000000)  returns 0x00 (0000ms, 0700ms total)
T1AFC 000:849 JLINK_WriteReg(R12, 0x00000000)  returns 0x00 (0000ms, 0700ms total)
T1AFC 000:849 JLINK_WriteReg(R13, 0x20000800)  returns 0x00 (0000ms, 0700ms total)
T1AFC 000:849 JLINK_WriteReg(R14, 0x20000001)  returns 0x00 (0000ms, 0700ms total)
T1AFC 000:849 JLINK_WriteReg(R15, 0x20000038)  returns 0x00 (0000ms, 0700ms total)
T1AFC 000:849 JLINK_WriteReg(XPSR, 0x01000000)  returns 0x00 (0001ms, 0700ms total)
T1AFC 000:850 JLINK_WriteReg(MSP, 0x20000800)  returns 0x00 (0000ms, 0701ms total)
T1AFC 000:850 JLINK_WriteReg(PSP, 0x20000800)  returns 0x00 (0000ms, 0701ms total)
T1AFC 000:850 JLINK_WriteReg(CFBP, 0x00000000)  returns 0x00 (0000ms, 0701ms total)
T1AFC 000:850 JLINK_SetBPEx(Addr = 0x20000000, Type = 0xFFFFFFF2) -- CPU_ReadMem(2 bytes @ 0x20000000)  returns 0x00000001 (0001ms, 0701ms total)
T1AFC 000:851 JLINK_Go() -- CPU_WriteMem(2 bytes @ 0x20000000) -- CPU_WriteMem(4 bytes @ 0xE0002008) -- CPU_WriteMem(4 bytes @ 0xE000200C) -- CPU_WriteMem(4 bytes @ 0xE0002010) -- CPU_WriteMem(4 bytes @ 0xE0002014) -- CPU_WriteMem(4 bytes @ 0xE0002018) -- CPU_WriteMem(4 bytes @ 0xE000201C) (0010ms, 0702ms total)
T1AFC 000:861 JLINK_IsHalted() -- CPU_ReadMem(2 bytes @ 0x20000000)  returns TRUE (0005ms, 0712ms total)
T1AFC 000:866 JLINK_ReadReg(R15)  returns 0x20000000 (0000ms, 0712ms total)
T1AFC 000:866 JLINK_ClrBPEx(BPHandle = 0x00000001)  returns 0x00 (0000ms, 0712ms total)
T1AFC 000:866 JLINK_ReadReg(R0)  returns 0x00000000 (0000ms, 0712ms total)
T1AFC 000:867 JLINK_WriteReg(R0, 0x08000000)  returns 0x00 (0000ms, 0712ms total)
T1AFC 000:867 JLINK_WriteReg(R1, 0x007A1200)  returns 0x00 (0000ms, 0712ms total)
T1AFC 000:867 JLINK_WriteReg(R2, 0x00000001)  returns 0x00 (0000ms, 0712ms total)
T1AFC 000:867 JLINK_WriteReg(R3, 0x00000000)  returns 0x00 (0000ms, 0712ms total)
T1AFC 000:867 JLINK_WriteReg(R4, 0x00000000)  returns 0x00 (0000ms, 0712ms total)
T1AFC 000:867 JLINK_WriteReg(R5, 0x00000000)  returns 0x00 (0000ms, 0712ms total)
T1AFC 000:867 JLINK_WriteReg(R6, 0x00000000)  returns 0x00 (0000ms, 0712ms total)
T1AFC 000:867 JLINK_WriteReg(R7, 0x00000000)  returns 0x00 (0000ms, 0712ms total)
T1AFC 000:867 JLINK_WriteReg(R8, 0x00000000)  returns 0x00 (0000ms, 0712ms total)
T1AFC 000:867 JLINK_WriteReg(R9, 0x20000160)  returns 0x00 (0000ms, 0712ms total)
T1AFC 000:867 JLINK_WriteReg(R10, 0x00000000)  returns 0x00 (0000ms, 0712ms total)
T1AFC 000:867 JLINK_WriteReg(R11, 0x00000000)  returns 0x00 (0000ms, 0712ms total)
T1AFC 000:867 JLINK_WriteReg(R12, 0x00000000)  returns 0x00 (0000ms, 0712ms total)
T1AFC 000:867 JLINK_WriteReg(R13, 0x20000800)  returns 0x00 (0000ms, 0712ms total)
T1AFC 000:867 JLINK_WriteReg(R14, 0x20000001)  returns 0x00 (0000ms, 0712ms total)
T1AFC 000:867 JLINK_WriteReg(R15, 0x2000007C)  returns 0x00 (0000ms, 0712ms total)
T1AFC 000:867 JLINK_WriteReg(XPSR, 0x01000000)  returns 0x00 (0000ms, 0712ms total)
T1AFC 000:867 JLINK_WriteReg(MSP, 0x20000800)  returns 0x00 (0000ms, 0712ms total)
T1AFC 000:867 JLINK_WriteReg(PSP, 0x20000800)  returns 0x00 (0000ms, 0712ms total)
T1AFC 000:867 JLINK_WriteReg(CFBP, 0x00000000)  returns 0x00 (0000ms, 0712ms total)
T1AFC 000:867 JLINK_SetBPEx(Addr = 0x20000000, Type = 0xFFFFFFF2)  returns 0x00000002 (0000ms, 0712ms total)
T1AFC 000:867 JLINK_Go() -- CPU_WriteMem(4 bytes @ 0xE0002008) -- CPU_WriteMem(4 bytes @ 0xE000200C) -- CPU_WriteMem(4 bytes @ 0xE0002010) -- CPU_WriteMem(4 bytes @ 0xE0002014) -- CPU_WriteMem(4 bytes @ 0xE0002018) -- CPU_WriteMem(4 bytes @ 0xE000201C) (0010ms, 0712ms total)
T1AFC 000:877 JLINK_IsHalted()  returns FALSE (0001ms, 0722ms total)
T1AFC 000:928 JLINK_IsHalted() -- CPU_ReadMem(2 bytes @ 0x20000000)  returns TRUE (0005ms, 0722ms total)
T1AFC 000:933 JLINK_ReadReg(R15)  returns 0x20000000 (0000ms, 0722ms total)
T1AFC 000:933 JLINK_ClrBPEx(BPHandle = 0x00000002)  returns 0x00 (0000ms, 0722ms total)
T1AFC 000:933 JLINK_ReadReg(R0)  returns 0x00000000 (0000ms, 0722ms total)
T1AFC 000:987 JLINK_WriteReg(R0, 0x00000001)  returns 0x00 (0000ms, 0722ms total)
T1AFC 000:987 JLINK_WriteReg(R1, 0x007A1200)  returns 0x00 (0000ms, 0722ms total)
T1AFC 000:987 JLINK_WriteReg(R2, 0x00000001)  returns 0x00 (0000ms, 0722ms total)
T1AFC 000:987 JLINK_WriteReg(R3, 0x00000000)  returns 0x00 (0000ms, 0722ms total)
T1AFC 000:987 JLINK_WriteReg(R4, 0x00000000)  returns 0x00 (0000ms, 0722ms total)
T1AFC 000:987 JLINK_WriteReg(R5, 0x00000000)  returns 0x00 (0000ms, 0722ms total)
T1AFC 000:987 JLINK_WriteReg(R6, 0x00000000)  returns 0x00 (0000ms, 0722ms total)
T1AFC 000:987 JLINK_WriteReg(R7, 0x00000000)  returns 0x00 (0000ms, 0722ms total)
T1AFC 000:987 JLINK_WriteReg(R8, 0x00000000)  returns 0x00 (0000ms, 0722ms total)
T1AFC 000:987 JLINK_WriteReg(R9, 0x20000160)  returns 0x00 (0000ms, 0722ms total)
T1AFC 000:987 JLINK_WriteReg(R10, 0x00000000)  returns 0x00 (0000ms, 0722ms total)
T1AFC 000:987 JLINK_WriteReg(R11, 0x00000000)  returns 0x00 (0000ms, 0722ms total)
T1AFC 000:987 JLINK_WriteReg(R12, 0x00000000)  returns 0x00 (0000ms, 0722ms total)
T1AFC 000:987 JLINK_WriteReg(R13, 0x20000800)  returns 0x00 (0000ms, 0722ms total)
T1AFC 000:988 JLINK_WriteReg(R14, 0x20000001)  returns 0x00 (0000ms, 0723ms total)
T1AFC 000:988 JLINK_WriteReg(R15, 0x2000006A)  returns 0x00 (0000ms, 0723ms total)
T1AFC 000:988 JLINK_WriteReg(XPSR, 0x01000000)  returns 0x00 (0000ms, 0723ms total)
T1AFC 000:988 JLINK_WriteReg(MSP, 0x20000800)  returns 0x00 (0000ms, 0723ms total)
T1AFC 000:988 JLINK_WriteReg(PSP, 0x20000800)  returns 0x00 (0000ms, 0723ms total)
T1AFC 000:988 JLINK_WriteReg(CFBP, 0x00000000)  returns 0x00 (0000ms, 0723ms total)
T1AFC 000:988 JLINK_SetBPEx(Addr = 0x20000000, Type = 0xFFFFFFF2)  returns 0x00000003 (0000ms, 0723ms total)
T1AFC 000:988 JLINK_Go() -- CPU_WriteMem(4 bytes @ 0xE0002008) -- CPU_WriteMem(4 bytes @ 0xE000200C) -- CPU_WriteMem(4 bytes @ 0xE0002010) -- CPU_WriteMem(4 bytes @ 0xE0002014) -- CPU_WriteMem(4 bytes @ 0xE0002018) -- CPU_WriteMem(4 bytes @ 0xE000201C) (0009ms, 0723ms total)
T1AFC 000:997 JLINK_IsHalted() -- CPU_ReadMem(2 bytes @ 0x20000000)  returns TRUE (0005ms, 0732ms total)
T1AFC 001:002 JLINK_ReadReg(R15)  returns 0x20000000 (0001ms, 0732ms total)
T1AFC 001:003 JLINK_ClrBPEx(BPHandle = 0x00000003)  returns 0x00 (0001ms, 0733ms total)
T1AFC 001:004 JLINK_ReadReg(R0)  returns 0x00000000 (0000ms, 0734ms total)
T1AFC 001:012 JLINK_WriteMem(0x20000000, 0x0164 Bytes, ...) -- Data:  00 BE 0A E0 0D 78 2D 06 68 40 08 24 40 00 00 D3 ... -- CPU_WriteMem(356 bytes @ 0x20000000)  returns 0x164 (0003ms, 0734ms total)
T1AFC 001:015 JLINK_WriteReg(R0, 0x08000000)  returns 0x00 (0000ms, 0737ms total)
T1AFC 001:015 JLINK_WriteReg(R1, 0x007A1200)  returns 0x00 (0000ms, 0737ms total)
T1AFC 001:015 JLINK_WriteReg(R2, 0x00000002)  returns 0x00 (0000ms, 0737ms total)
T1AFC 001:015 JLINK_WriteReg(R3, 0x00000000)  returns 0x00 (0000ms, 0737ms total)
T1AFC 001:015 JLINK_WriteReg(R4, 0x00000000)  returns 0x00 (0000ms, 0737ms total)
T1AFC 001:015 JLINK_WriteReg(R5, 0x00000000)  returns 0x00 (0000ms, 0737ms total)
T1AFC 001:015 JLINK_WriteReg(R6, 0x00000000)  returns 0x00 (0000ms, 0737ms total)
T1AFC 001:015 JLINK_WriteReg(R7, 0x00000000)  returns 0x00 (0000ms, 0737ms total)
T1AFC 001:015 JLINK_WriteReg(R8, 0x00000000)  returns 0x00 (0000ms, 0737ms total)
T1AFC 001:015 JLINK_WriteReg(R9, 0x20000160)  returns 0x00 (0000ms, 0737ms total)
T1AFC 001:015 JLINK_WriteReg(R10, 0x00000000)  returns 0x00 (0000ms, 0737ms total)
T1AFC 001:015 JLINK_WriteReg(R11, 0x00000000)  returns 0x00 (0000ms, 0737ms total)
T1AFC 001:015 JLINK_WriteReg(R12, 0x00000000)  returns 0x00 (0000ms, 0737ms total)
T1AFC 001:015 JLINK_WriteReg(R13, 0x20000800)  returns 0x00 (0000ms, 0737ms total)
T1AFC 001:015 JLINK_WriteReg(R14, 0x20000001)  returns 0x00 (0000ms, 0737ms total)
T1AFC 001:015 JLINK_WriteReg(R15, 0x20000038)  returns 0x00 (0000ms, 0737ms total)
T1AFC 001:015 JLINK_WriteReg(XPSR, 0x01000000)  returns 0x00 (0000ms, 0737ms total)
T1AFC 001:016 JLINK_WriteReg(MSP, 0x20000800)  returns 0x00 (0000ms, 0738ms total)
T1AFC 001:016 JLINK_WriteReg(PSP, 0x20000800)  returns 0x00 (0000ms, 0738ms total)
T1AFC 001:016 JLINK_WriteReg(CFBP, 0x00000000)  returns 0x00 (0000ms, 0738ms total)
T1AFC 001:016 JLINK_SetBPEx(Addr = 0x20000000, Type = 0xFFFFFFF2) -- CPU_ReadMem(2 bytes @ 0x20000000)  returns 0x00000004 (0001ms, 0738ms total)
T1AFC 001:017 JLINK_Go() -- CPU_WriteMem(2 bytes @ 0x20000000) -- CPU_WriteMem(4 bytes @ 0xE0002008) -- CPU_WriteMem(4 bytes @ 0xE000200C) -- CPU_WriteMem(4 bytes @ 0xE0002010) -- CPU_WriteMem(4 bytes @ 0xE0002014) -- CPU_WriteMem(4 bytes @ 0xE0002018) -- CPU_WriteMem(4 bytes @ 0xE000201C) (0010ms, 0739ms total)
T1AFC 001:027 JLINK_IsHalted() -- CPU_ReadMem(2 bytes @ 0x20000000)  returns TRUE (0005ms, 0749ms total)
T1AFC 001:032 JLINK_ReadReg(R15)  returns 0x20000000 (0000ms, 0749ms total)
T1AFC 001:032 JLINK_ClrBPEx(BPHandle = 0x00000004)  returns 0x00 (0000ms, 0749ms total)
T1AFC 001:032 JLINK_ReadReg(R0)  returns 0x00000000 (0000ms, 0749ms total)
T1AFC 001:033 JLINK_WriteMem(0x20000164, 0x0400 Bytes, ...) -- Data:  78 80 00 20 1D 02 00 08 21 02 00 08 23 02 00 08 ... -- CPU_WriteMem(1024 bytes @ 0x20000164)  returns 0x400 (0007ms, 0749ms total)
T1AFC 001:040 JLINK_WriteReg(R0, 0x08000000)  returns 0x00 (0000ms, 0756ms total)
T1AFC 001:040 JLINK_WriteReg(R1, 0x00000400)  returns 0x00 (0000ms, 0756ms total)
T1AFC 001:040 JLINK_WriteReg(R2, 0x20000164)  returns 0x00 (0001ms, 0756ms total)
T1AFC 001:041 JLINK_WriteReg(R3, 0x00000000)  returns 0x00 (0000ms, 0757ms total)
T1AFC 001:041 JLINK_WriteReg(R4, 0x00000000)  returns 0x00 (0000ms, 0757ms total)
T1AFC 001:041 JLINK_WriteReg(R5, 0x00000000)  returns 0x00 (0000ms, 0757ms total)
T1AFC 001:041 JLINK_WriteReg(R6, 0x00000000)  returns 0x00 (0000ms, 0757ms total)
T1AFC 001:041 JLINK_WriteReg(R7, 0x00000000)  returns 0x00 (0000ms, 0757ms total)
T1AFC 001:041 JLINK_WriteReg(R8, 0x00000000)  returns 0x00 (0000ms, 0757ms total)
T1AFC 001:041 JLINK_WriteReg(R9, 0x20000160)  returns 0x00 (0000ms, 0757ms total)
T1AFC 001:041 JLINK_WriteReg(R10, 0x00000000)  returns 0x00 (0000ms, 0757ms total)
T1AFC 001:041 JLINK_WriteReg(R11, 0x00000000)  returns 0x00 (0000ms, 0757ms total)
T1AFC 001:041 JLINK_WriteReg(R12, 0x00000000)  returns 0x00 (0000ms, 0757ms total)
T1AFC 001:041 JLINK_WriteReg(R13, 0x20000800)  returns 0x00 (0000ms, 0757ms total)
T1AFC 001:041 JLINK_WriteReg(R14, 0x20000001)  returns 0x00 (0000ms, 0757ms total)
T1AFC 001:041 JLINK_WriteReg(R15, 0x200000F4)  returns 0x00 (0000ms, 0757ms total)
T1AFC 001:041 JLINK_WriteReg(XPSR, 0x01000000)  returns 0x00 (0000ms, 0757ms total)
T1AFC 001:041 JLINK_WriteReg(MSP, 0x20000800)  returns 0x00 (0000ms, 0757ms total)
T1AFC 001:041 JLINK_WriteReg(PSP, 0x20000800)  returns 0x00 (0000ms, 0757ms total)
T1AFC 001:041 JLINK_WriteReg(CFBP, 0x00000000)  returns 0x00 (0000ms, 0757ms total)
T1AFC 001:041 JLINK_SetBPEx(Addr = 0x20000000, Type = 0xFFFFFFF2)  returns 0x00000005 (0000ms, 0757ms total)
T1AFC 001:041 JLINK_Go() -- CPU_WriteMem(4 bytes @ 0xE0002008) -- CPU_WriteMem(4 bytes @ 0xE000200C) -- CPU_WriteMem(4 bytes @ 0xE0002010) -- CPU_WriteMem(4 bytes @ 0xE0002014) -- CPU_WriteMem(4 bytes @ 0xE0002018) -- CPU_WriteMem(4 bytes @ 0xE000201C) (0010ms, 0757ms total)
T1AFC 001:051 JLINK_IsHalted()  returns FALSE (0001ms, 0767ms total)
T1AFC 001:102 JLINK_IsHalted() -- CPU_ReadMem(2 bytes @ 0x20000000)  returns TRUE (0005ms, 0767ms total)
T1AFC 001:107 JLINK_ReadReg(R15)  returns 0x20000000 (0000ms, 0767ms total)
T1AFC 001:107 JLINK_ClrBPEx(BPHandle = 0x00000005)  returns 0x00 (0000ms, 0767ms total)
T1AFC 001:107 JLINK_ReadReg(R0)  returns 0x00000000 (0000ms, 0767ms total)
T1AFC 001:108 JLINK_WriteMem(0x20000164, 0x0400 Bytes, ...) -- Data:  00 25 74 4E 35 70 79 4D 2D 78 6D 1C 77 4E 35 70 ... -- CPU_WriteMem(1024 bytes @ 0x20000164)  returns 0x400 (0007ms, 0767ms total)
T1AFC 001:115 JLINK_WriteReg(R0, 0x08000400)  returns 0x00 (0000ms, 0774ms total)
T1AFC 001:115 JLINK_WriteReg(R1, 0x00000400)  returns 0x00 (0000ms, 0774ms total)
T1AFC 001:115 JLINK_WriteReg(R2, 0x20000164)  returns 0x00 (0000ms, 0774ms total)
T1AFC 001:115 JLINK_WriteReg(R3, 0x00000000)  returns 0x00 (0000ms, 0774ms total)
T1AFC 001:115 JLINK_WriteReg(R4, 0x00000000)  returns 0x00 (0000ms, 0774ms total)
T1AFC 001:115 JLINK_WriteReg(R5, 0x00000000)  returns 0x00 (0000ms, 0774ms total)
T1AFC 001:115 JLINK_WriteReg(R6, 0x00000000)  returns 0x00 (0000ms, 0774ms total)
T1AFC 001:115 JLINK_WriteReg(R7, 0x00000000)  returns 0x00 (0000ms, 0774ms total)
T1AFC 001:116 JLINK_WriteReg(R8, 0x00000000)  returns 0x00 (0000ms, 0774ms total)
T1AFC 001:116 JLINK_WriteReg(R9, 0x20000160)  returns 0x00 (0000ms, 0774ms total)
T1AFC 001:116 JLINK_WriteReg(R10, 0x00000000)  returns 0x00 (0000ms, 0774ms total)
T1AFC 001:116 JLINK_WriteReg(R11, 0x00000000)  returns 0x00 (0000ms, 0774ms total)
T1AFC 001:116 JLINK_WriteReg(R12, 0x00000000)  returns 0x00 (0000ms, 0774ms total)
T1AFC 001:116 JLINK_WriteReg(R13, 0x20000800)  returns 0x00 (0000ms, 0774ms total)
T1AFC 001:116 JLINK_WriteReg(R14, 0x20000001)  returns 0x00 (0000ms, 0774ms total)
T1AFC 001:116 JLINK_WriteReg(R15, 0x200000F4)  returns 0x00 (0000ms, 0774ms total)
T1AFC 001:116 JLINK_WriteReg(XPSR, 0x01000000)  returns 0x00 (0000ms, 0774ms total)
T1AFC 001:116 JLINK_WriteReg(MSP, 0x20000800)  returns 0x00 (0000ms, 0774ms total)
T1AFC 001:116 JLINK_WriteReg(PSP, 0x20000800)  returns 0x00 (0000ms, 0774ms total)
T1AFC 001:116 JLINK_WriteReg(CFBP, 0x00000000)  returns 0x00 (0000ms, 0774ms total)
T1AFC 001:116 JLINK_SetBPEx(Addr = 0x20000000, Type = 0xFFFFFFF2)  returns 0x00000006 (0000ms, 0774ms total)
T1AFC 001:116 JLINK_Go() -- CPU_WriteMem(4 bytes @ 0xE0002008) -- CPU_WriteMem(4 bytes @ 0xE000200C) -- CPU_WriteMem(4 bytes @ 0xE0002010) -- CPU_WriteMem(4 bytes @ 0xE0002014) -- CPU_WriteMem(4 bytes @ 0xE0002018) -- CPU_WriteMem(4 bytes @ 0xE000201C) (0009ms, 0774ms total)
T1AFC 001:125 JLINK_IsHalted()  returns FALSE (0001ms, 0783ms total)
T1AFC 001:177 JLINK_IsHalted() -- CPU_ReadMem(2 bytes @ 0x20000000)  returns TRUE (0004ms, 0783ms total)
T1AFC 001:181 JLINK_ReadReg(R15)  returns 0x20000000 (0000ms, 0783ms total)
T1AFC 001:181 JLINK_ClrBPEx(BPHandle = 0x00000006)  returns 0x00 (0000ms, 0783ms total)
T1AFC 001:181 JLINK_ReadReg(R0)  returns 0x00000000 (0000ms, 0783ms total)
T1AFC 001:181 JLINK_WriteMem(0x20000164, 0x0400 Bytes, ...) -- Data:  8E 40 33 43 66 4E 0C 36 33 60 12 F0 02 0F 08 D0 ... -- CPU_WriteMem(1024 bytes @ 0x20000164)  returns 0x400 (0008ms, 0783ms total)
T1AFC 001:189 JLINK_WriteReg(R0, 0x08000800)  returns 0x00 (0000ms, 0791ms total)
T1AFC 001:189 JLINK_WriteReg(R1, 0x00000400)  returns 0x00 (0000ms, 0791ms total)
T1AFC 001:189 JLINK_WriteReg(R2, 0x20000164)  returns 0x00 (0000ms, 0791ms total)
T1AFC 001:189 JLINK_WriteReg(R3, 0x00000000)  returns 0x00 (0000ms, 0791ms total)
T1AFC 001:189 JLINK_WriteReg(R4, 0x00000000)  returns 0x00 (0000ms, 0791ms total)
T1AFC 001:189 JLINK_WriteReg(R5, 0x00000000)  returns 0x00 (0000ms, 0791ms total)
T1AFC 001:189 JLINK_WriteReg(R6, 0x00000000)  returns 0x00 (0000ms, 0791ms total)
T1AFC 001:189 JLINK_WriteReg(R7, 0x00000000)  returns 0x00 (0000ms, 0791ms total)
T1AFC 001:189 JLINK_WriteReg(R8, 0x00000000)  returns 0x00 (0000ms, 0791ms total)
T1AFC 001:189 JLINK_WriteReg(R9, 0x20000160)  returns 0x00 (0000ms, 0791ms total)
T1AFC 001:189 JLINK_WriteReg(R10, 0x00000000)  returns 0x00 (0000ms, 0791ms total)
T1AFC 001:189 JLINK_WriteReg(R11, 0x00000000)  returns 0x00 (0000ms, 0791ms total)
T1AFC 001:189 JLINK_WriteReg(R12, 0x00000000)  returns 0x00 (0000ms, 0791ms total)
T1AFC 001:189 JLINK_WriteReg(R13, 0x20000800)  returns 0x00 (0000ms, 0791ms total)
T1AFC 001:189 JLINK_WriteReg(R14, 0x20000001)  returns 0x00 (0001ms, 0791ms total)
T1AFC 001:190 JLINK_WriteReg(R15, 0x200000F4)  returns 0x00 (0000ms, 0792ms total)
T1AFC 001:190 JLINK_WriteReg(XPSR, 0x01000000)  returns 0x00 (0000ms, 0792ms total)
T1AFC 001:190 JLINK_WriteReg(MSP, 0x20000800)  returns 0x00 (0000ms, 0792ms total)
T1AFC 001:190 JLINK_WriteReg(PSP, 0x20000800)  returns 0x00 (0000ms, 0792ms total)
T1AFC 001:190 JLINK_WriteReg(CFBP, 0x00000000)  returns 0x00 (0000ms, 0792ms total)
T1AFC 001:190 JLINK_SetBPEx(Addr = 0x20000000, Type = 0xFFFFFFF2)  returns 0x00000007 (0000ms, 0792ms total)
T1AFC 001:190 JLINK_Go() -- CPU_WriteMem(4 bytes @ 0xE0002008) -- CPU_WriteMem(4 bytes @ 0xE000200C) -- CPU_WriteMem(4 bytes @ 0xE0002010) -- CPU_WriteMem(4 bytes @ 0xE0002014) -- CPU_WriteMem(4 bytes @ 0xE0002018) -- CPU_WriteMem(4 bytes @ 0xE000201C) (0009ms, 0792ms total)
T1AFC 001:199 JLINK_IsHalted()  returns FALSE (0001ms, 0801ms total)
T1AFC 001:251 JLINK_IsHalted() -- CPU_ReadMem(2 bytes @ 0x20000000)  returns TRUE (0005ms, 0801ms total)
T1AFC 001:256 JLINK_ReadReg(R15)  returns 0x20000000 (0000ms, 0801ms total)
T1AFC 001:256 JLINK_ClrBPEx(BPHandle = 0x00000007)  returns 0x00 (0000ms, 0801ms total)
T1AFC 001:256 JLINK_ReadReg(R0)  returns 0x00000000 (0000ms, 0801ms total)
T1AFC 001:256 JLINK_WriteMem(0x20000164, 0x0400 Bytes, ...) -- Data:  09 1D FF F7 49 FF 08 22 70 48 01 68 71 48 00 68 ... -- CPU_WriteMem(1024 bytes @ 0x20000164)  returns 0x400 (0007ms, 0801ms total)
T1AFC 001:263 JLINK_WriteReg(R0, 0x08000C00)  returns 0x00 (0000ms, 0808ms total)
T1AFC 001:263 JLINK_WriteReg(R1, 0x00000400)  returns 0x00 (0000ms, 0808ms total)
T1AFC 001:263 JLINK_WriteReg(R2, 0x20000164)  returns 0x00 (0000ms, 0808ms total)
T1AFC 001:263 JLINK_WriteReg(R3, 0x00000000)  returns 0x00 (0000ms, 0808ms total)
T1AFC 001:263 JLINK_WriteReg(R4, 0x00000000)  returns 0x00 (0000ms, 0808ms total)
T1AFC 001:263 JLINK_WriteReg(R5, 0x00000000)  returns 0x00 (0000ms, 0808ms total)
T1AFC 001:263 JLINK_WriteReg(R6, 0x00000000)  returns 0x00 (0000ms, 0808ms total)
T1AFC 001:263 JLINK_WriteReg(R7, 0x00000000)  returns 0x00 (0000ms, 0808ms total)
T1AFC 001:263 JLINK_WriteReg(R8, 0x00000000)  returns 0x00 (0000ms, 0808ms total)
T1AFC 001:263 JLINK_WriteReg(R9, 0x20000160)  returns 0x00 (0000ms, 0808ms total)
T1AFC 001:263 JLINK_WriteReg(R10, 0x00000000)  returns 0x00 (0000ms, 0808ms total)
T1AFC 001:263 JLINK_WriteReg(R11, 0x00000000)  returns 0x00 (0000ms, 0808ms total)
T1AFC 001:263 JLINK_WriteReg(R12, 0x00000000)  returns 0x00 (0000ms, 0808ms total)
T1AFC 001:263 JLINK_WriteReg(R13, 0x20000800)  returns 0x00 (0000ms, 0808ms total)
T1AFC 001:263 JLINK_WriteReg(R14, 0x20000001)  returns 0x00 (0000ms, 0808ms total)
T1AFC 001:263 JLINK_WriteReg(R15, 0x200000F4)  returns 0x00 (0000ms, 0808ms total)
T1AFC 001:263 JLINK_WriteReg(XPSR, 0x01000000)  returns 0x00 (0000ms, 0808ms total)
T1AFC 001:263 JLINK_WriteReg(MSP, 0x20000800)  returns 0x00 (0000ms, 0808ms total)
T1AFC 001:263 JLINK_WriteReg(PSP, 0x20000800)  returns 0x00 (0000ms, 0808ms total)
T1AFC 001:263 JLINK_WriteReg(CFBP, 0x00000000)  returns 0x00 (0000ms, 0808ms total)
T1AFC 001:263 JLINK_SetBPEx(Addr = 0x20000000, Type = 0xFFFFFFF2)  returns 0x00000008 (0000ms, 0808ms total)
T1AFC 001:263 JLINK_Go() -- CPU_WriteMem(4 bytes @ 0xE0002008) -- CPU_WriteMem(4 bytes @ 0xE000200C) -- CPU_WriteMem(4 bytes @ 0xE0002010) -- CPU_WriteMem(4 bytes @ 0xE0002014) -- CPU_WriteMem(4 bytes @ 0xE0002018) -- CPU_WriteMem(4 bytes @ 0xE000201C) (0010ms, 0808ms total)
T1AFC 001:273 JLINK_IsHalted()  returns FALSE (0001ms, 0818ms total)
T1AFC 001:325 JLINK_IsHalted() -- CPU_ReadMem(2 bytes @ 0x20000000)  returns TRUE (0005ms, 0818ms total)
T1AFC 001:330 JLINK_ReadReg(R15)  returns 0x20000000 (0000ms, 0818ms total)
T1AFC 001:330 JLINK_ClrBPEx(BPHandle = 0x00000008)  returns 0x00 (0000ms, 0818ms total)
T1AFC 001:330 JLINK_ReadReg(R0)  returns 0x00000000 (0000ms, 0818ms total)
T1AFC 001:331 JLINK_WriteMem(0x20000164, 0x0400 Bytes, ...) -- Data:  F5 D1 04 B9 05 25 28 46 70 BD 70 B5 05 46 04 24 ... -- CPU_WriteMem(1024 bytes @ 0x20000164)  returns 0x400 (0008ms, 0818ms total)
T1AFC 001:339 JLINK_WriteReg(R0, 0x08001000)  returns 0x00 (0000ms, 0826ms total)
T1AFC 001:339 JLINK_WriteReg(R1, 0x00000400)  returns 0x00 (0000ms, 0826ms total)
T1AFC 001:339 JLINK_WriteReg(R2, 0x20000164)  returns 0x00 (0000ms, 0826ms total)
T1AFC 001:339 JLINK_WriteReg(R3, 0x00000000)  returns 0x00 (0000ms, 0826ms total)
T1AFC 001:339 JLINK_WriteReg(R4, 0x00000000)  returns 0x00 (0000ms, 0826ms total)
T1AFC 001:339 JLINK_WriteReg(R5, 0x00000000)  returns 0x00 (0000ms, 0826ms total)
T1AFC 001:339 JLINK_WriteReg(R6, 0x00000000)  returns 0x00 (0000ms, 0826ms total)
T1AFC 001:339 JLINK_WriteReg(R7, 0x00000000)  returns 0x00 (0000ms, 0826ms total)
T1AFC 001:339 JLINK_WriteReg(R8, 0x00000000)  returns 0x00 (0000ms, 0826ms total)
T1AFC 001:339 JLINK_WriteReg(R9, 0x20000160)  returns 0x00 (0000ms, 0826ms total)
T1AFC 001:339 JLINK_WriteReg(R10, 0x00000000)  returns 0x00 (0000ms, 0826ms total)
T1AFC 001:339 JLINK_WriteReg(R11, 0x00000000)  returns 0x00 (0000ms, 0826ms total)
T1AFC 001:339 JLINK_WriteReg(R12, 0x00000000)  returns 0x00 (0000ms, 0826ms total)
T1AFC 001:339 JLINK_WriteReg(R13, 0x20000800)  returns 0x00 (0000ms, 0826ms total)
T1AFC 001:339 JLINK_WriteReg(R14, 0x20000001)  returns 0x00 (0000ms, 0826ms total)
T1AFC 001:339 JLINK_WriteReg(R15, 0x200000F4)  returns 0x00 (0000ms, 0826ms total)
T1AFC 001:339 JLINK_WriteReg(XPSR, 0x01000000)  returns 0x00 (0000ms, 0826ms total)
T1AFC 001:339 JLINK_WriteReg(MSP, 0x20000800)  returns 0x00 (0000ms, 0826ms total)
T1AFC 001:339 JLINK_WriteReg(PSP, 0x20000800)  returns 0x00 (0000ms, 0826ms total)
T1AFC 001:339 JLINK_WriteReg(CFBP, 0x00000000)  returns 0x00 (0000ms, 0826ms total)
T1AFC 001:339 JLINK_SetBPEx(Addr = 0x20000000, Type = 0xFFFFFFF2)  returns 0x00000009 (0000ms, 0826ms total)
T1AFC 001:339 JLINK_Go() -- CPU_WriteMem(4 bytes @ 0xE0002008) -- CPU_WriteMem(4 bytes @ 0xE000200C) -- CPU_WriteMem(4 bytes @ 0xE0002010) -- CPU_WriteMem(4 bytes @ 0xE0002014) -- CPU_WriteMem(4 bytes @ 0xE0002018) -- CPU_WriteMem(4 bytes @ 0xE000201C) (0009ms, 0826ms total)
T1AFC 001:348 JLINK_IsHalted()  returns FALSE (0001ms, 0835ms total)
T1AFC 001:400 JLINK_IsHalted() -- CPU_ReadMem(2 bytes @ 0x20000000)  returns TRUE (0005ms, 0835ms total)
T1AFC 001:405 JLINK_ReadReg(R15)  returns 0x20000000 (0000ms, 0835ms total)
T1AFC 001:405 JLINK_ClrBPEx(BPHandle = 0x00000009)  returns 0x00 (0000ms, 0835ms total)
T1AFC 001:405 JLINK_ReadReg(R0)  returns 0x00000000 (0000ms, 0835ms total)
T1AFC 001:406 JLINK_WriteMem(0x20000164, 0x0400 Bytes, ...) -- Data:  11 F0 20 0F 01 D0 01 20 00 E0 00 20 70 47 29 B1 ... -- CPU_WriteMem(1024 bytes @ 0x20000164)  returns 0x400 (0007ms, 0835ms total)
T1AFC 001:413 JLINK_WriteReg(R0, 0x08001400)  returns 0x00 (0000ms, 0842ms total)
T1AFC 001:413 JLINK_WriteReg(R1, 0x00000400)  returns 0x00 (0000ms, 0842ms total)
T1AFC 001:413 JLINK_WriteReg(R2, 0x20000164)  returns 0x00 (0000ms, 0842ms total)
T1AFC 001:413 JLINK_WriteReg(R3, 0x00000000)  returns 0x00 (0000ms, 0842ms total)
T1AFC 001:413 JLINK_WriteReg(R4, 0x00000000)  returns 0x00 (0000ms, 0842ms total)
T1AFC 001:414 JLINK_WriteReg(R5, 0x00000000)  returns 0x00 (0000ms, 0843ms total)
T1AFC 001:414 JLINK_WriteReg(R6, 0x00000000)  returns 0x00 (0000ms, 0843ms total)
T1AFC 001:414 JLINK_WriteReg(R7, 0x00000000)  returns 0x00 (0000ms, 0843ms total)
T1AFC 001:414 JLINK_WriteReg(R8, 0x00000000)  returns 0x00 (0000ms, 0843ms total)
T1AFC 001:414 JLINK_WriteReg(R9, 0x20000160)  returns 0x00 (0000ms, 0843ms total)
T1AFC 001:414 JLINK_WriteReg(R10, 0x00000000)  returns 0x00 (0000ms, 0843ms total)
T1AFC 001:414 JLINK_WriteReg(R11, 0x00000000)  returns 0x00 (0000ms, 0843ms total)
T1AFC 001:414 JLINK_WriteReg(R12, 0x00000000)  returns 0x00 (0000ms, 0843ms total)
T1AFC 001:414 JLINK_WriteReg(R13, 0x20000800)  returns 0x00 (0000ms, 0843ms total)
T1AFC 001:414 JLINK_WriteReg(R14, 0x20000001)  returns 0x00 (0000ms, 0843ms total)
T1AFC 001:414 JLINK_WriteReg(R15, 0x200000F4)  returns 0x00 (0000ms, 0843ms total)
T1AFC 001:414 JLINK_WriteReg(XPSR, 0x01000000)  returns 0x00 (0000ms, 0843ms total)
T1AFC 001:414 JLINK_WriteReg(MSP, 0x20000800)  returns 0x00 (0000ms, 0843ms total)
T1AFC 001:414 JLINK_WriteReg(PSP, 0x20000800)  returns 0x00 (0000ms, 0843ms total)
T1AFC 001:414 JLINK_WriteReg(CFBP, 0x00000000)  returns 0x00 (0000ms, 0843ms total)
T1AFC 001:414 JLINK_SetBPEx(Addr = 0x20000000, Type = 0xFFFFFFF2)  returns 0x0000000A (0000ms, 0843ms total)
T1AFC 001:414 JLINK_Go() -- CPU_WriteMem(4 bytes @ 0xE0002008) -- CPU_WriteMem(4 bytes @ 0xE000200C) -- CPU_WriteMem(4 bytes @ 0xE0002010) -- CPU_WriteMem(4 bytes @ 0xE0002014) -- CPU_WriteMem(4 bytes @ 0xE0002018) -- CPU_WriteMem(4 bytes @ 0xE000201C) (0010ms, 0843ms total)
T1AFC 001:424 JLINK_IsHalted()  returns FALSE (0001ms, 0853ms total)
T1AFC 001:475 JLINK_IsHalted() -- CPU_ReadMem(2 bytes @ 0x20000000)  returns TRUE (0005ms, 0853ms total)
T1AFC 001:480 JLINK_ReadReg(R15)  returns 0x20000000 (0000ms, 0853ms total)
T1AFC 001:480 JLINK_ClrBPEx(BPHandle = 0x0000000A)  returns 0x00 (0000ms, 0853ms total)
T1AFC 001:480 JLINK_ReadReg(R0)  returns 0x00000000 (0000ms, 0853ms total)
T1AFC 001:481 JLINK_WriteMem(0x20000164, 0x0400 Bytes, ...) -- Data:  F4 48 00 78 0A 28 07 DB 00 20 F2 49 08 70 F2 48 ... -- CPU_WriteMem(1024 bytes @ 0x20000164)  returns 0x400 (0007ms, 0853ms total)
T1AFC 001:488 JLINK_WriteReg(R0, 0x08001800)  returns 0x00 (0000ms, 0860ms total)
T1AFC 001:488 JLINK_WriteReg(R1, 0x00000400)  returns 0x00 (0000ms, 0860ms total)
T1AFC 001:488 JLINK_WriteReg(R2, 0x20000164)  returns 0x00 (0000ms, 0860ms total)
T1AFC 001:488 JLINK_WriteReg(R3, 0x00000000)  returns 0x00 (0000ms, 0860ms total)
T1AFC 001:488 JLINK_WriteReg(R4, 0x00000000)  returns 0x00 (0000ms, 0860ms total)
T1AFC 001:488 JLINK_WriteReg(R5, 0x00000000)  returns 0x00 (0000ms, 0860ms total)
T1AFC 001:488 JLINK_WriteReg(R6, 0x00000000)  returns 0x00 (0000ms, 0860ms total)
T1AFC 001:488 JLINK_WriteReg(R7, 0x00000000)  returns 0x00 (0000ms, 0860ms total)
T1AFC 001:488 JLINK_WriteReg(R8, 0x00000000)  returns 0x00 (0000ms, 0860ms total)
T1AFC 001:488 JLINK_WriteReg(R9, 0x20000160)  returns 0x00 (0001ms, 0860ms total)
T1AFC 001:489 JLINK_WriteReg(R10, 0x00000000)  returns 0x00 (0000ms, 0861ms total)
T1AFC 001:489 JLINK_WriteReg(R11, 0x00000000)  returns 0x00 (0000ms, 0861ms total)
T1AFC 001:489 JLINK_WriteReg(R12, 0x00000000)  returns 0x00 (0000ms, 0861ms total)
T1AFC 001:489 JLINK_WriteReg(R13, 0x20000800)  returns 0x00 (0000ms, 0861ms total)
T1AFC 001:489 JLINK_WriteReg(R14, 0x20000001)  returns 0x00 (0000ms, 0861ms total)
T1AFC 001:489 JLINK_WriteReg(R15, 0x200000F4)  returns 0x00 (0000ms, 0861ms total)
T1AFC 001:489 JLINK_WriteReg(XPSR, 0x01000000)  returns 0x00 (0000ms, 0861ms total)
T1AFC 001:489 JLINK_WriteReg(MSP, 0x20000800)  returns 0x00 (0000ms, 0861ms total)
T1AFC 001:489 JLINK_WriteReg(PSP, 0x20000800)  returns 0x00 (0000ms, 0861ms total)
T1AFC 001:489 JLINK_WriteReg(CFBP, 0x00000000)  returns 0x00 (0000ms, 0861ms total)
T1AFC 001:489 JLINK_SetBPEx(Addr = 0x20000000, Type = 0xFFFFFFF2)  returns 0x0000000B (0000ms, 0861ms total)
T1AFC 001:489 JLINK_Go() -- CPU_WriteMem(4 bytes @ 0xE0002008) -- CPU_WriteMem(4 bytes @ 0xE000200C) -- CPU_WriteMem(4 bytes @ 0xE0002010) -- CPU_WriteMem(4 bytes @ 0xE0002014) -- CPU_WriteMem(4 bytes @ 0xE0002018) -- CPU_WriteMem(4 bytes @ 0xE000201C) (0009ms, 0861ms total)
T1AFC 001:498 JLINK_IsHalted()  returns FALSE (0001ms, 0870ms total)
T1AFC 001:550 JLINK_IsHalted() -- CPU_ReadMem(2 bytes @ 0x20000000)  returns TRUE (0004ms, 0870ms total)
T1AFC 001:554 JLINK_ReadReg(R15)  returns 0x20000000 (0000ms, 0870ms total)
T1AFC 001:554 JLINK_ClrBPEx(BPHandle = 0x0000000B)  returns 0x00 (0000ms, 0870ms total)
T1AFC 001:554 JLINK_ReadReg(R0)  returns 0x00000000 (0000ms, 0870ms total)
T1AFC 001:554 JLINK_WriteMem(0x20000164, 0x0400 Bytes, ...) -- Data:  50 00 00 20 5C 00 00 20 6C 12 00 20 00 10 02 40 ... -- CPU_WriteMem(1024 bytes @ 0x20000164)  returns 0x400 (0008ms, 0870ms total)
T1AFC 001:562 JLINK_WriteReg(R0, 0x08001C00)  returns 0x00 (0000ms, 0878ms total)
T1AFC 001:562 JLINK_WriteReg(R1, 0x00000400)  returns 0x00 (0000ms, 0878ms total)
T1AFC 001:562 JLINK_WriteReg(R2, 0x20000164)  returns 0x00 (0000ms, 0878ms total)
T1AFC 001:562 JLINK_WriteReg(R3, 0x00000000)  returns 0x00 (0000ms, 0878ms total)
T1AFC 001:562 JLINK_WriteReg(R4, 0x00000000)  returns 0x00 (0000ms, 0878ms total)
T1AFC 001:562 JLINK_WriteReg(R5, 0x00000000)  returns 0x00 (0000ms, 0878ms total)
T1AFC 001:562 JLINK_WriteReg(R6, 0x00000000)  returns 0x00 (0000ms, 0878ms total)
T1AFC 001:562 JLINK_WriteReg(R7, 0x00000000)  returns 0x00 (0000ms, 0878ms total)
T1AFC 001:562 JLINK_WriteReg(R8, 0x00000000)  returns 0x00 (0000ms, 0878ms total)
T1AFC 001:562 JLINK_WriteReg(R9, 0x20000160)  returns 0x00 (0000ms, 0878ms total)
T1AFC 001:562 JLINK_WriteReg(R10, 0x00000000)  returns 0x00 (0000ms, 0878ms total)
T1AFC 001:562 JLINK_WriteReg(R11, 0x00000000)  returns 0x00 (0000ms, 0878ms total)
T1AFC 001:562 JLINK_WriteReg(R12, 0x00000000)  returns 0x00 (0000ms, 0878ms total)
T1AFC 001:562 JLINK_WriteReg(R13, 0x20000800)  returns 0x00 (0000ms, 0878ms total)
T1AFC 001:562 JLINK_WriteReg(R14, 0x20000001)  returns 0x00 (0000ms, 0878ms total)
T1AFC 001:562 JLINK_WriteReg(R15, 0x200000F4)  returns 0x00 (0001ms, 0878ms total)
T1AFC 001:563 JLINK_WriteReg(XPSR, 0x01000000)  returns 0x00 (0000ms, 0879ms total)
T1AFC 001:563 JLINK_WriteReg(MSP, 0x20000800)  returns 0x00 (0000ms, 0879ms total)
T1AFC 001:563 JLINK_WriteReg(PSP, 0x20000800)  returns 0x00 (0000ms, 0879ms total)
T1AFC 001:563 JLINK_WriteReg(CFBP, 0x00000000)  returns 0x00 (0000ms, 0879ms total)
T1AFC 001:563 JLINK_SetBPEx(Addr = 0x20000000, Type = 0xFFFFFFF2)  returns 0x0000000C (0000ms, 0879ms total)
T1AFC 001:563 JLINK_Go() -- CPU_WriteMem(4 bytes @ 0xE0002008) -- CPU_WriteMem(4 bytes @ 0xE000200C) -- CPU_WriteMem(4 bytes @ 0xE0002010) -- CPU_WriteMem(4 bytes @ 0xE0002014) -- CPU_WriteMem(4 bytes @ 0xE0002018) -- CPU_WriteMem(4 bytes @ 0xE000201C) (0009ms, 0879ms total)
T1AFC 001:572 JLINK_IsHalted()  returns FALSE (0001ms, 0888ms total)
T1AFC 001:624 JLINK_IsHalted() -- CPU_ReadMem(2 bytes @ 0x20000000)  returns TRUE (0004ms, 0888ms total)
T1AFC 001:628 JLINK_ReadReg(R15)  returns 0x20000000 (0001ms, 0888ms total)
T1AFC 001:629 JLINK_ClrBPEx(BPHandle = 0x0000000C)  returns 0x00 (0000ms, 0889ms total)
T1AFC 001:629 JLINK_ReadReg(R0)  returns 0x00000000 (0000ms, 0889ms total)
T1AFC 001:629 JLINK_WriteMem(0x20000164, 0x0400 Bytes, ...) -- Data:  24 49 C1 F8 A8 01 02 20 FE F7 24 FB 00 20 22 49 ... -- CPU_WriteMem(1024 bytes @ 0x20000164)  returns 0x400 (0008ms, 0889ms total)
T1AFC 001:637 JLINK_WriteReg(R0, 0x08002000)  returns 0x00 (0000ms, 0897ms total)
T1AFC 001:637 JLINK_WriteReg(R1, 0x00000400)  returns 0x00 (0000ms, 0897ms total)
T1AFC 001:637 JLINK_WriteReg(R2, 0x20000164)  returns 0x00 (0000ms, 0897ms total)
T1AFC 001:637 JLINK_WriteReg(R3, 0x00000000)  returns 0x00 (0000ms, 0897ms total)
T1AFC 001:637 JLINK_WriteReg(R4, 0x00000000)  returns 0x00 (0000ms, 0897ms total)
T1AFC 001:637 JLINK_WriteReg(R5, 0x00000000)  returns 0x00 (0000ms, 0897ms total)
T1AFC 001:637 JLINK_WriteReg(R6, 0x00000000)  returns 0x00 (0000ms, 0897ms total)
T1AFC 001:637 JLINK_WriteReg(R7, 0x00000000)  returns 0x00 (0000ms, 0897ms total)
T1AFC 001:637 JLINK_WriteReg(R8, 0x00000000)  returns 0x00 (0000ms, 0897ms total)
T1AFC 001:637 JLINK_WriteReg(R9, 0x20000160)  returns 0x00 (0000ms, 0897ms total)
T1AFC 001:637 JLINK_WriteReg(R10, 0x00000000)  returns 0x00 (0000ms, 0897ms total)
T1AFC 001:637 JLINK_WriteReg(R11, 0x00000000)  returns 0x00 (0000ms, 0897ms total)
T1AFC 001:637 JLINK_WriteReg(R12, 0x00000000)  returns 0x00 (0000ms, 0897ms total)
T1AFC 001:637 JLINK_WriteReg(R13, 0x20000800)  returns 0x00 (0000ms, 0897ms total)
T1AFC 001:637 JLINK_WriteReg(R14, 0x20000001)  returns 0x00 (0000ms, 0897ms total)
T1AFC 001:637 JLINK_WriteReg(R15, 0x200000F4)  returns 0x00 (0000ms, 0897ms total)
T1AFC 001:637 JLINK_WriteReg(XPSR, 0x01000000)  returns 0x00 (0000ms, 0897ms total)
T1AFC 001:637 JLINK_WriteReg(MSP, 0x20000800)  returns 0x00 (0000ms, 0897ms total)
T1AFC 001:637 JLINK_WriteReg(PSP, 0x20000800)  returns 0x00 (0000ms, 0897ms total)
T1AFC 001:637 JLINK_WriteReg(CFBP, 0x00000000)  returns 0x00 (0000ms, 0897ms total)
T1AFC 001:637 JLINK_SetBPEx(Addr = 0x20000000, Type = 0xFFFFFFF2)  returns 0x0000000D (0000ms, 0897ms total)
T1AFC 001:637 JLINK_Go() -- CPU_WriteMem(4 bytes @ 0xE0002008) -- CPU_WriteMem(4 bytes @ 0xE000200C) -- CPU_WriteMem(4 bytes @ 0xE0002010) -- CPU_WriteMem(4 bytes @ 0xE0002014) -- CPU_WriteMem(4 bytes @ 0xE0002018) -- CPU_WriteMem(4 bytes @ 0xE000201C) (0009ms, 0897ms total)
T1AFC 001:646 JLINK_IsHalted()  returns FALSE (0001ms, 0906ms total)
T1AFC 001:698 JLINK_IsHalted() -- CPU_ReadMem(2 bytes @ 0x20000000)  returns TRUE (0005ms, 0906ms total)
T1AFC 001:703 JLINK_ReadReg(R15)  returns 0x20000000 (0000ms, 0906ms total)
T1AFC 001:703 JLINK_ClrBPEx(BPHandle = 0x0000000D)  returns 0x00 (0000ms, 0906ms total)
T1AFC 001:703 JLINK_ReadReg(R0)  returns 0x00000000 (0000ms, 0906ms total)
T1AFC 001:704 JLINK_WriteMem(0x20000164, 0x0400 Bytes, ...) -- Data:  85 B2 B5 42 F2 DB 78 1E C7 B2 00 25 10 E0 9D 48 ... -- CPU_WriteMem(1024 bytes @ 0x20000164)  returns 0x400 (0007ms, 0906ms total)
T1AFC 001:711 JLINK_WriteReg(R0, 0x08002400)  returns 0x00 (0001ms, 0913ms total)
T1AFC 001:712 JLINK_WriteReg(R1, 0x00000400)  returns 0x00 (0000ms, 0914ms total)
T1AFC 001:712 JLINK_WriteReg(R2, 0x20000164)  returns 0x00 (0000ms, 0914ms total)
T1AFC 001:712 JLINK_WriteReg(R3, 0x00000000)  returns 0x00 (0000ms, 0914ms total)
T1AFC 001:712 JLINK_WriteReg(R4, 0x00000000)  returns 0x00 (0000ms, 0914ms total)
T1AFC 001:712 JLINK_WriteReg(R5, 0x00000000)  returns 0x00 (0000ms, 0914ms total)
T1AFC 001:712 JLINK_WriteReg(R6, 0x00000000)  returns 0x00 (0000ms, 0914ms total)
T1AFC 001:712 JLINK_WriteReg(R7, 0x00000000)  returns 0x00 (0000ms, 0914ms total)
T1AFC 001:712 JLINK_WriteReg(R8, 0x00000000)  returns 0x00 (0000ms, 0914ms total)
T1AFC 001:712 JLINK_WriteReg(R9, 0x20000160)  returns 0x00 (0000ms, 0914ms total)
T1AFC 001:712 JLINK_WriteReg(R10, 0x00000000)  returns 0x00 (0000ms, 0914ms total)
T1AFC 001:712 JLINK_WriteReg(R11, 0x00000000)  returns 0x00 (0000ms, 0914ms total)
T1AFC 001:712 JLINK_WriteReg(R12, 0x00000000)  returns 0x00 (0000ms, 0914ms total)
T1AFC 001:712 JLINK_WriteReg(R13, 0x20000800)  returns 0x00 (0000ms, 0914ms total)
T1AFC 001:712 JLINK_WriteReg(R14, 0x20000001)  returns 0x00 (0000ms, 0914ms total)
T1AFC 001:712 JLINK_WriteReg(R15, 0x200000F4)  returns 0x00 (0000ms, 0914ms total)
T1AFC 001:712 JLINK_WriteReg(XPSR, 0x01000000)  returns 0x00 (0000ms, 0914ms total)
T1AFC 001:712 JLINK_WriteReg(MSP, 0x20000800)  returns 0x00 (0000ms, 0914ms total)
T1AFC 001:712 JLINK_WriteReg(PSP, 0x20000800)  returns 0x00 (0000ms, 0914ms total)
T1AFC 001:712 JLINK_WriteReg(CFBP, 0x00000000)  returns 0x00 (0000ms, 0914ms total)
T1AFC 001:712 JLINK_SetBPEx(Addr = 0x20000000, Type = 0xFFFFFFF2)  returns 0x0000000E (0000ms, 0914ms total)
T1AFC 001:712 JLINK_Go() -- CPU_WriteMem(4 bytes @ 0xE0002008) -- CPU_WriteMem(4 bytes @ 0xE000200C) -- CPU_WriteMem(4 bytes @ 0xE0002010) -- CPU_WriteMem(4 bytes @ 0xE0002014) -- CPU_WriteMem(4 bytes @ 0xE0002018) -- CPU_WriteMem(4 bytes @ 0xE000201C) (0009ms, 0914ms total)
T1AFC 001:721 JLINK_IsHalted()  returns FALSE (0001ms, 0923ms total)
T1AFC 001:773 JLINK_IsHalted() -- CPU_ReadMem(2 bytes @ 0x20000000)  returns TRUE (0005ms, 0923ms total)
T1AFC 001:778 JLINK_ReadReg(R15)  returns 0x20000000 (0000ms, 0923ms total)
T1AFC 001:778 JLINK_ClrBPEx(BPHandle = 0x0000000E)  returns 0x00 (0000ms, 0923ms total)
T1AFC 001:778 JLINK_ReadReg(R0)  returns 0x00000000 (0000ms, 0923ms total)
T1AFC 001:779 JLINK_WriteMem(0x20000164, 0x0400 Bytes, ...) -- Data:  4F 49 09 78 11 F0 10 0F 59 D0 4D 49 09 78 11 F0 ... -- CPU_WriteMem(1024 bytes @ 0x20000164)  returns 0x400 (0007ms, 0923ms total)
T1AFC 001:786 JLINK_WriteReg(R0, 0x08002800)  returns 0x00 (0000ms, 0930ms total)
T1AFC 001:786 JLINK_WriteReg(R1, 0x00000400)  returns 0x00 (0000ms, 0930ms total)
T1AFC 001:786 JLINK_WriteReg(R2, 0x20000164)  returns 0x00 (0000ms, 0930ms total)
T1AFC 001:786 JLINK_WriteReg(R3, 0x00000000)  returns 0x00 (0000ms, 0930ms total)
T1AFC 001:786 JLINK_WriteReg(R4, 0x00000000)  returns 0x00 (0000ms, 0930ms total)
T1AFC 001:787 JLINK_WriteReg(R5, 0x00000000)  returns 0x00 (0000ms, 0930ms total)
T1AFC 001:787 JLINK_WriteReg(R6, 0x00000000)  returns 0x00 (0000ms, 0930ms total)
T1AFC 001:787 JLINK_WriteReg(R7, 0x00000000)  returns 0x00 (0000ms, 0930ms total)
T1AFC 001:787 JLINK_WriteReg(R8, 0x00000000)  returns 0x00 (0000ms, 0930ms total)
T1AFC 001:787 JLINK_WriteReg(R9, 0x20000160)  returns 0x00 (0000ms, 0930ms total)
T1AFC 001:787 JLINK_WriteReg(R10, 0x00000000)  returns 0x00 (0000ms, 0930ms total)
T1AFC 001:787 JLINK_WriteReg(R11, 0x00000000)  returns 0x00 (0000ms, 0930ms total)
T1AFC 001:787 JLINK_WriteReg(R12, 0x00000000)  returns 0x00 (0000ms, 0930ms total)
T1AFC 001:787 JLINK_WriteReg(R13, 0x20000800)  returns 0x00 (0000ms, 0930ms total)
T1AFC 001:787 JLINK_WriteReg(R14, 0x20000001)  returns 0x00 (0000ms, 0930ms total)
T1AFC 001:787 JLINK_WriteReg(R15, 0x200000F4)  returns 0x00 (0000ms, 0930ms total)
T1AFC 001:787 JLINK_WriteReg(XPSR, 0x01000000)  returns 0x00 (0000ms, 0930ms total)
T1AFC 001:787 JLINK_WriteReg(MSP, 0x20000800)  returns 0x00 (0000ms, 0930ms total)
T1AFC 001:787 JLINK_WriteReg(PSP, 0x20000800)  returns 0x00 (0000ms, 0930ms total)
T1AFC 001:787 JLINK_WriteReg(CFBP, 0x00000000)  returns 0x00 (0000ms, 0930ms total)
T1AFC 001:787 JLINK_SetBPEx(Addr = 0x20000000, Type = 0xFFFFFFF2)  returns 0x0000000F (0000ms, 0930ms total)
T1AFC 001:787 JLINK_Go() -- CPU_WriteMem(4 bytes @ 0xE0002008) -- CPU_WriteMem(4 bytes @ 0xE000200C) -- CPU_WriteMem(4 bytes @ 0xE0002010) -- CPU_WriteMem(4 bytes @ 0xE0002014) -- CPU_WriteMem(4 bytes @ 0xE0002018) -- CPU_WriteMem(4 bytes @ 0xE000201C) (0009ms, 0930ms total)
T1AFC 001:797 JLINK_IsHalted()  returns FALSE (0001ms, 0940ms total)
T1AFC 001:848 JLINK_IsHalted() -- CPU_ReadMem(2 bytes @ 0x20000000)  returns TRUE (0005ms, 0940ms total)
T1AFC 001:853 JLINK_ReadReg(R15)  returns 0x20000000 (0000ms, 0940ms total)
T1AFC 001:853 JLINK_ClrBPEx(BPHandle = 0x0000000F)  returns 0x00 (0000ms, 0940ms total)
T1AFC 001:853 JLINK_ReadReg(R0)  returns 0x00000000 (0000ms, 0940ms total)
T1AFC 001:853 JLINK_WriteMem(0x20000164, 0x0400 Bytes, ...) -- Data:  05 46 00 24 00 20 FF F7 A5 FE 53 48 40 68 20 F4 ... -- CPU_WriteMem(1024 bytes @ 0x20000164)  returns 0x400 (0008ms, 0940ms total)
T1AFC 001:861 JLINK_WriteReg(R0, 0x08002C00)  returns 0x00 (0000ms, 0948ms total)
T1AFC 001:861 JLINK_WriteReg(R1, 0x00000400)  returns 0x00 (0000ms, 0948ms total)
T1AFC 001:861 JLINK_WriteReg(R2, 0x20000164)  returns 0x00 (0000ms, 0948ms total)
T1AFC 001:861 JLINK_WriteReg(R3, 0x00000000)  returns 0x00 (0000ms, 0948ms total)
T1AFC 001:861 JLINK_WriteReg(R4, 0x00000000)  returns 0x00 (0000ms, 0948ms total)
T1AFC 001:861 JLINK_WriteReg(R5, 0x00000000)  returns 0x00 (0000ms, 0948ms total)
T1AFC 001:861 JLINK_WriteReg(R6, 0x00000000)  returns 0x00 (0000ms, 0948ms total)
T1AFC 001:861 JLINK_WriteReg(R7, 0x00000000)  returns 0x00 (0000ms, 0948ms total)
T1AFC 001:861 JLINK_WriteReg(R8, 0x00000000)  returns 0x00 (0000ms, 0948ms total)
T1AFC 001:861 JLINK_WriteReg(R9, 0x20000160)  returns 0x00 (0000ms, 0948ms total)
T1AFC 001:861 JLINK_WriteReg(R10, 0x00000000)  returns 0x00 (0000ms, 0948ms total)
T1AFC 001:862 JLINK_WriteReg(R11, 0x00000000)  returns 0x00 (0000ms, 0949ms total)
T1AFC 001:862 JLINK_WriteReg(R12, 0x00000000)  returns 0x00 (0000ms, 0949ms total)
T1AFC 001:862 JLINK_WriteReg(R13, 0x20000800)  returns 0x00 (0000ms, 0949ms total)
T1AFC 001:862 JLINK_WriteReg(R14, 0x20000001)  returns 0x00 (0000ms, 0949ms total)
T1AFC 001:862 JLINK_WriteReg(R15, 0x200000F4)  returns 0x00 (0000ms, 0949ms total)
T1AFC 001:862 JLINK_WriteReg(XPSR, 0x01000000)  returns 0x00 (0000ms, 0949ms total)
T1AFC 001:862 JLINK_WriteReg(MSP, 0x20000800)  returns 0x00 (0000ms, 0949ms total)
T1AFC 001:862 JLINK_WriteReg(PSP, 0x20000800)  returns 0x00 (0000ms, 0949ms total)
T1AFC 001:862 JLINK_WriteReg(CFBP, 0x00000000)  returns 0x00 (0000ms, 0949ms total)
T1AFC 001:862 JLINK_SetBPEx(Addr = 0x20000000, Type = 0xFFFFFFF2)  returns 0x00000010 (0000ms, 0949ms total)
T1AFC 001:862 JLINK_Go() -- CPU_WriteMem(4 bytes @ 0xE0002008) -- CPU_WriteMem(4 bytes @ 0xE000200C) -- CPU_WriteMem(4 bytes @ 0xE0002010) -- CPU_WriteMem(4 bytes @ 0xE0002014) -- CPU_WriteMem(4 bytes @ 0xE0002018) -- CPU_WriteMem(4 bytes @ 0xE000201C) (0009ms, 0949ms total)
T1AFC 001:871 JLINK_IsHalted()  returns FALSE (0001ms, 0958ms total)
T1AFC 001:923 JLINK_IsHalted() -- CPU_ReadMem(2 bytes @ 0x20000000)  returns TRUE (0005ms, 0958ms total)
T1AFC 001:928 JLINK_ReadReg(R15)  returns 0x20000000 (0000ms, 0958ms total)
T1AFC 001:928 JLINK_ClrBPEx(BPHandle = 0x00000010)  returns 0x00 (0000ms, 0958ms total)
T1AFC 001:928 JLINK_ReadReg(R0)  returns 0x00000000 (0000ms, 0958ms total)
T1AFC 001:928 JLINK_WriteMem(0x20000164, 0x0400 Bytes, ...) -- Data:  E1 FF FE F7 6E FF 20 12 FE F7 DC FF FE F7 69 FF ... -- CPU_WriteMem(1024 bytes @ 0x20000164)  returns 0x400 (0007ms, 0958ms total)
T1AFC 001:935 JLINK_WriteReg(R0, 0x08003000)  returns 0x00 (0000ms, 0965ms total)
T1AFC 001:935 JLINK_WriteReg(R1, 0x00000400)  returns 0x00 (0000ms, 0965ms total)
T1AFC 001:935 JLINK_WriteReg(R2, 0x20000164)  returns 0x00 (0000ms, 0965ms total)
T1AFC 001:935 JLINK_WriteReg(R3, 0x00000000)  returns 0x00 (0000ms, 0965ms total)
T1AFC 001:935 JLINK_WriteReg(R4, 0x00000000)  returns 0x00 (0000ms, 0965ms total)
T1AFC 001:935 JLINK_WriteReg(R5, 0x00000000)  returns 0x00 (0000ms, 0965ms total)
T1AFC 001:935 JLINK_WriteReg(R6, 0x00000000)  returns 0x00 (0000ms, 0965ms total)
T1AFC 001:935 JLINK_WriteReg(R7, 0x00000000)  returns 0x00 (0000ms, 0965ms total)
T1AFC 001:935 JLINK_WriteReg(R8, 0x00000000)  returns 0x00 (0000ms, 0965ms total)
T1AFC 001:935 JLINK_WriteReg(R9, 0x20000160)  returns 0x00 (0000ms, 0965ms total)
T1AFC 001:935 JLINK_WriteReg(R10, 0x00000000)  returns 0x00 (0000ms, 0965ms total)
T1AFC 001:935 JLINK_WriteReg(R11, 0x00000000)  returns 0x00 (0000ms, 0965ms total)
T1AFC 001:935 JLINK_WriteReg(R12, 0x00000000)  returns 0x00 (0000ms, 0965ms total)
T1AFC 001:935 JLINK_WriteReg(R13, 0x20000800)  returns 0x00 (0000ms, 0965ms total)
